
**** 05/15/22 17:46:53 ********* PSpice 9.2 (Mar 2000) ******** ID# 1 ********

 ** Profile: "stab1-OP"  [ C:\Users\mvman\projects2\OrCAD\AnaSim\stabilizTensiune\stab_v1-stab1-op.sim ] 


 ****     CIRCUIT DESCRIPTION


******************************************************************************




** Creating circuit file "stab_v1-stab1-op.sim.cir" 
** WARNING: THIS AUTOMATICALLY GENERATED FILE MAY BE OVERWRITTEN BY SUBSEQUENT SIMULATIONS

*Libraries: 
* Local Libraries :
* From [PSPICE NETLIST] section of C:\Orcad\PSpice\PSpice.ini file:
.lib "nom.lib" 

*Analysis directives: 
.OP
.PROBE V(*) I(*) W(*) D(*) NOISE(*) 
.INC ".\stab_v1-stab1.net" 



**** INCLUDING stab_v1-stab1.net ****
* source STAB_V1
R_Rs         VO 0  {Rload}  
R_R         N21878 VI  100k  
R_P         D N592000 {50k*0.25+.001}
R_R5         N50405 N53086  68  
R_R1         VO D  130k  
V_V1         VI 0 15V
D_D1         0 N41071 D1N4733 
R_R2         0 N592000  160k  
Q_Q1         VO N53086 VI QBD136/PLP 
R_Rz         N41071 VO  150  
Q_Q3         N21878 D N41071 BC546A 
Q_Q2         N50405 N21878 N41071 BC546A 
.PARAM  Rload=0.01

**** RESUMING stab_v1-stab1-op.sim.cir ****
.END

**** 05/15/22 17:46:53 ********* PSpice 9.2 (Mar 2000) ******** ID# 1 ********

 ** Profile: "stab1-OP"  [ C:\Users\mvman\projects2\OrCAD\AnaSim\stabilizTensiune\stab_v1-stab1-op.sim ] 


 ****     Diode MODEL PARAMETERS


******************************************************************************




               D1N4733         
          IS    1.214000E-15 
         ISR    2.601000E-09 
          BV    5.1          
         IBV     .70507      
         NBV     .74348      
        IBVL    4.827400E-03 
        NBVL    6.7393       
          RS    1.078        
         CJO  185.000000E-12 
          VJ     .75         
           M     .3509       
        TBV1  176.471000E-06 


**** 05/15/22 17:46:53 ********* PSpice 9.2 (Mar 2000) ******** ID# 1 ********

 ** Profile: "stab1-OP"  [ C:\Users\mvman\projects2\OrCAD\AnaSim\stabilizTensiune\stab_v1-stab1-op.sim ] 


 ****     BJT MODEL PARAMETERS


******************************************************************************




               QBD136/PLP      BC546A          
               PNP             NPN             
          IS   74.010000E-15    7.049000E-15 
          BF  336.5           253            
          NF     .9938          1            
         VAF   22.47          127.9          
         IKF     .1689           .07705      
         ISE  410.400000E-18   96.260000E-15 
          NE    1.054           1.556        
          BR   13.91            1            
          NR     .9913          1            
         VAR   30                            
         IKR     .09888         3.321        
         ISC   12.900000E-15  130.800000E-15 
          NC    1.1             1.602        
          NK                     .5305       
          RB     .5                          
         RBM     .5                          
         IRB    1.000000E-06                 
          RE     .208                        
          RC     .05526          .8766       
         CJE  106.600000E-12   11.500000E-12 
         VJE     .69             .5          
         MJE     .3676           .6715       
         CJC   52.340000E-12    5.250000E-12 
         VJC     .6431           .5697       
         MJC     .4436           .3147       
        XCJC     .44                         
         MJS     .333                        
          FC     .99                         
          TF  257.800000E-12  409.500000E-12 
         XTF   13.56           40.12         
         VTF    2.366          10            
         ITF    1.304           1.994        
          TR  100.000000E-27   10.000000E-09 
         XTB                    1.5          
          CN    2.2             2.42         
           D     .52             .87         


**** 05/15/22 17:46:53 ********* PSpice 9.2 (Mar 2000) ******** ID# 1 ********

 ** Profile: "stab1-OP"  [ C:\Users\mvman\projects2\OrCAD\AnaSim\stabilizTensiune\stab_v1-stab1-op.sim ] 


 ****     SMALL SIGNAL BIAS SOLUTION       TEMPERATURE =   27.000 DEG C


******************************************************************************



 NODE   VOLTAGE     NODE   VOLTAGE     NODE   VOLTAGE     NODE   VOLTAGE


(    D)     .0081  (   VI)   15.0000  (   VO)     .0141  (N21878)    3.9266     

(N41071)    3.1791 (N50405)   12.4480 (N53086)   13.8750 (N592000)     .0075    




    VOLTAGE SOURCE CURRENTS
    NAME         CURRENT

    V_V1        -1.412E+00

    TOTAL POWER DISSIPATION   2.12E+01  WATTS


**** 05/15/22 17:46:53 ********* PSpice 9.2 (Mar 2000) ******** ID# 1 ********

 ** Profile: "stab1-OP"  [ C:\Users\mvman\projects2\OrCAD\AnaSim\stabilizTensiune\stab_v1-stab1-op.sim ] 


 ****     OPERATING POINT INFORMATION      TEMPERATURE =   27.000 DEG C


******************************************************************************






**** DIODES


NAME         D_D1      
MODEL        D1N4733   
ID          -8.36E-08 
VD          -3.18E+00 
REQ          2.21E+06 
CAP          1.03E-10 


**** BIPOLAR JUNCTION TRANSISTORS


NAME         Q_Q1        Q_Q3        Q_Q2      
MODEL        QBD136/PLP  BC546A      BC546A    
IB          -2.10E-02   -4.17E-12    1.11E-04 
IC          -1.39E+00    4.83E-12    2.10E-02 
VBE         -1.12E+00   -3.17E+00    7.48E-01 
VBC          1.39E+01   -3.92E+00   -8.52E+00 
VCE         -1.50E+01    7.48E-01    9.27E+00 
BETADC       6.63E+01   -1.16E+00    1.90E+02 
GM           2.94E+01   -5.85E-15    6.63E-01 
RPI          1.24E+00    2.53E+14    2.42E+02 
RX           5.00E-01    0.00E+00    0.00E+00 
RO           2.56E+01    9.65E+11    6.50E+03 
CBE          1.44E-08    3.02E-12    3.17E-10 
CBC          5.79E-12    2.74E-12    2.20E-12 
CJS          0.00E+00    0.00E+00    0.00E+00 
BETAAC       3.64E+01   -1.48E+00    1.61E+02 
CBX/CBX2     7.38E-12    0.00E+00    0.00E+00 
FT/FT2       3.24E+08   -1.62E-04    3.30E+08 



          JOB CONCLUDED

          TOTAL JOB TIME             .02
