
**** 05/11/22 02:09:37 ********* PSpice 9.2 (Mar 2000) ******** ID# 1 ********

 ** Profile: "stab2Prot2-OP1"  [ C:\Users\mvman\projects2\OrCAD\AnaSim\stabilizTensiune\stab_v1-stab2prot2-op1.sim ] 


 ****     CIRCUIT DESCRIPTION


******************************************************************************




** Creating circuit file "stab_v1-stab2prot2-op1.sim.cir" 
** WARNING: THIS AUTOMATICALLY GENERATED FILE MAY BE OVERWRITTEN BY SUBSEQUENT SIMULATIONS

*Libraries: 
* Local Libraries :
* From [PSPICE NETLIST] section of C:\Orcad\PSpice\PSpice.ini file:
.lib "nom.lib" 

*Analysis directives: 
.OP
.PROBE V(*) I(*) W(*) 
.INC ".\stab_v1-stab2Prot2.net" 



**** INCLUDING stab_v1-stab2Prot2.net ****
* source STAB_V1
X_Q5         VI N59015 D BCV47
R_R1         VO D  130k  
Q_Q1         VO N53086 N19462 QBD136/PLP 
Q_Q4         N59015 N19462 VI BC558A 
R_R2         0 N363190  160k  
C_C1         VO 0  47u  
R_R         N21831 VI  100K  
Q_Q2         N50405 N21831 N41071 BC546A 
V_V1         VI 0 10V
D_D1         0 N41071 D1N4733 
R_R6/1W         VI N19462  560mOhm  
Q_Q3         N21831 D N41071 BC546A 
R_P         D N363190 {50k*0.25+.001}
R_R5         N50405 N53086  68  
R_Rz         N41071 VO  150  
R_Rs         VO 0  {Rload}  
.PARAM  Rload=0.01

**** RESUMING stab_v1-stab2prot2-op1.sim.cir ****
.END

**** 05/11/22 02:09:37 ********* PSpice 9.2 (Mar 2000) ******** ID# 1 ********

 ** Profile: "stab2Prot2-OP1"  [ C:\Users\mvman\projects2\OrCAD\AnaSim\stabilizTensiune\stab_v1-stab2prot2-op1.sim ] 


 ****     Diode MODEL PARAMETERS


******************************************************************************




               D1N4733         X_Q5.Dmodel     
          IS    1.214000E-15   10.000000E-15 
         ISR    2.601000E-09                 
          BV    5.1                          
         IBV     .70507                      
         NBV     .74348                      
        IBVL    4.827400E-03                 
        NBVL    6.7393                       
          RS    1.078           1.000000E-03 
         CJO  185.000000E-12   10.000000E-21 
          VJ     .75                         
           M     .3509                       
        TBV1  176.471000E-06                 


**** 05/11/22 02:09:37 ********* PSpice 9.2 (Mar 2000) ******** ID# 1 ********

 ** Profile: "stab2Prot2-OP1"  [ C:\Users\mvman\projects2\OrCAD\AnaSim\stabilizTensiune\stab_v1-stab2prot2-op1.sim ] 


 ****     BJT MODEL PARAMETERS


******************************************************************************




               QBD136/PLP      BC558A          BC546A          X_Q5.Q1model    
               PNP             PNP             NPN             NPN             
          IS   74.010000E-15    1.020000E-15    7.049000E-15   28.882050E-15 
          BF  336.5           174.7           253             327.434        
          NF     .9938          1               1               1            
         VAF   22.47           73.79          127.9           100            
         IKF     .1689           .1023           .07705         1.21592      
         ISE  410.400000E-18   10.730000E-15   96.260000E-15    2.917181E-15 
          NE    1.054           1.644           1.556           1.26311      
          BR   13.91            4.432           1               1.1125       
          NR     .9913          1               1               1            
         VAR   30                                             100            
         IKR     .09888         2.237           3.321          48.307800E-06 
         ISC   12.900000E-15   14.740000E-15  130.800000E-15   13.715500E-15 
          NC    1.1             1.296           1.602           2.00409      
          NK                     .5033           .5305           .675285     
          RB     .5                                            19.98         
         RBM     .5                                                          
         IRB    1.000000E-06                                                 
          RE     .208                                                        
          RC     .05526         1.039            .8766           .018801     
         CJE  106.600000E-12   30.000000E-12   11.500000E-12   13.300000E-12 
         VJE     .69             .5              .5              .35         
         MJE     .3676           .3333           .6715           .25875      
         CJC   52.340000E-12    9.810000E-12    5.250000E-12    8.502000E-12 
         VJC     .6431           .4865           .5697                       
         MJC     .4436           .332            .3147           .3333       
        XCJC     .44                                             .9          
         MJS     .333                                                        
          FC     .99                                                         
          TF  257.800000E-12  830.300000E-12  409.500000E-12    1.000000E-09 
         XTF   13.56           10.32           40.12           10            
         VTF    2.366          10              10              10            
         ITF    1.304            .8981          1.994           1            
          TR  100.000000E-27   10.000000E-09   10.000000E-09    1.000000E-09 
         XTB                    1.5             1.5                          
          CN    2.2             2.2             2.42            2.42         
           D     .52             .52             .87             .87         


               X_Q5.Q2model    
               NPN             
          IS   28.882050E-15 
          BF  327.434        
          NF    1            
         VAF  100            
         IKF    1.21592      
         ISE    2.917181E-15 
          NE    1.26311      
          BR    1.1125       
          NR    1            
         VAR  100            
         IKR   48.307800E-06 
         ISC   13.715500E-15 
          NC    2.00409      
          NK     .675285     
          RB   19.98         
          RC     .018801     
         CJE   13.300000E-12 
         VJE     .35         
         MJE     .25875      
         MJC     .3333       
        XCJC     .9          
          TF    1.000000E-09 
         XTF   10            
         VTF   10            
         ITF    1            
          TR    1.000000E-09 
          CN    2.42         
           D     .87         


**** 05/11/22 02:09:37 ********* PSpice 9.2 (Mar 2000) ******** ID# 1 ********

 ** Profile: "stab2Prot2-OP1"  [ C:\Users\mvman\projects2\OrCAD\AnaSim\stabilizTensiune\stab_v1-stab2prot2-op1.sim ] 


 ****     SMALL SIGNAL BIAS SOLUTION       TEMPERATURE =   27.000 DEG C


******************************************************************************



 NODE   VOLTAGE     NODE   VOLTAGE     NODE   VOLTAGE     NODE   VOLTAGE


(    D)    1.5677  (   VI)   10.0000  (   VO)     .0061  (N19462)    9.6558     

(N21831)    1.6929 (N41071)     .9799 (N50405)    8.2992 (N53086)    8.7350     

(N59015)    2.4836 (X_Q5.4)    2.0992 (N363190)    1.4541                   




    VOLTAGE SOURCE CURRENTS
    NAME         CURRENT

    V_V1        -6.148E-01

    TOTAL POWER DISSIPATION   6.15E+00  WATTS


**** 05/11/22 02:09:37 ********* PSpice 9.2 (Mar 2000) ******** ID# 1 ********

 ** Profile: "stab2Prot2-OP1"  [ C:\Users\mvman\projects2\OrCAD\AnaSim\stabilizTensiune\stab_v1-stab2prot2-op1.sim ] 


 ****     OPERATING POINT INFORMATION      TEMPERATURE =   27.000 DEG C


******************************************************************************






**** DIODES


NAME         D_D1        X_Q5.D1               
MODEL        D1N4733     X_Q5.Dmodel           
ID          -3.49E-09   -8.44E-12             
VD          -9.80E-01   -8.43E+00             
REQ          1.88E+09    1.00E+12             
CAP          1.38E-10    3.26E-21             


**** BIPOLAR JUNCTION TRANSISTORS


NAME         Q_Q1        Q_Q4        Q_Q2        Q_Q3      
MODEL        QBD136/PLP  BC558A      BC546A      BC546A    
IB          -6.41E-03   -3.71E-11    3.09E-05    4.18E-07 
IC          -6.08E-01   -6.85E-10    6.41E-03    5.22E-05 
VBE         -9.21E-01   -3.44E-01    7.13E-01    5.88E-01 
VBC          8.73E+00    7.17E+00   -6.61E+00   -1.25E-01 
VCE         -9.65E+00   -7.52E+00    7.32E+00    7.13E-01 
BETADC       9.49E+01    1.85E+01    2.07E+02    1.25E+02 
GM           1.37E+01    2.61E-08    2.30E-01    2.02E-03 
RPI          4.07E+00    1.04E+09    8.86E+02    7.55E+04 
RX           5.00E-01    0.00E+00    0.00E+00    0.00E+00 
RO           5.03E+01    1.05E+11    2.10E+04    2.45E+06 
CBE          1.03E-08    4.25E-11    1.35E-10    3.58E-11 
CBC          7.03E-12    3.93E-12    2.37E-12    4.93E-12 
CJS          0.00E+00    0.00E+00    0.00E+00    0.00E+00 
BETAAC       5.56E+01    2.71E+01    2.03E+02    1.52E+02 
CBX/CBX2     8.94E-12    0.00E+00    0.00E+00    0.00E+00 
FT/FT2       2.11E+08    8.93E+01    2.66E+08    7.88E+06 



NAME         X_Q5.Q1                 X_Q5.Q2               
MODEL        X_Q5.Q1model            X_Q5.Q2model          
IB           6.21E-10                8.88E-08             
IC           8.82E-08                2.14E-05             
VBE          3.84E-01                5.32E-01             
VBC         -7.52E+00               -7.90E+00             
VCE          7.90E+00                8.43E+00             
BETADC       1.42E+02                2.41E+02             
GM           3.41E-06                8.28E-04             
RPI          4.71E+07                3.12E+05             
RX           2.00E+01                2.44E+01             
RO           1.21E+09                5.01E+06             
CBE          2.08E-11                2.08E-11             
CBC          3.44E-12                1.00E-21             
CJS          0.00E+00                0.00E+00             
BETAAC       1.61E+02                2.58E+02             
CBX/CBX2     3.82E-13                0.00E+00             
FT/FT2       2.20E+04                6.35E+06             



          JOB CONCLUDED

          TOTAL JOB TIME             .03
