
**** 10/26/22 01:11:22 ********* PSpice 9.2 (Mar 2000) ******** ID# 1 ********

 ** Profile: "stab2Prot2RedrMono1-tran1"  [ C:\Users\mvman\projects2\OrCAD\AnaSim\stabilizTensiune\stab_v1-stab2prot2redrmono1-tran1.


 ****     CIRCUIT DESCRIPTION


******************************************************************************




** Creating circuit file "stab_v1-stab2prot2redrmono1-tran1.sim.cir" 
** WARNING: THIS AUTOMATICALLY GENERATED FILE MAY BE OVERWRITTEN BY SUBSEQUENT SIMULATIONS

*Libraries: 
* Local Libraries :
* From [PSPICE NETLIST] section of C:\Orcad\PSpice\PSpice.ini file:
.lib "nom.lib" 

*Analysis directives: 
.TRAN  0 0.3 0.22 
.SAVEBIAS "C:\Users\mvman\projects2\OrCAD\AnaSim\stabilizTensiune\bias1" TRAN NOSUBCKT 
.OPTIONS LIST
.PROBE V(alias(*)) I(alias(*)) W(alias(*)) 
.INC ".\stab_v1-stab2Prot2RedrMono1.net" 



**** INCLUDING stab_v1-stab2Prot2RedrMono1.net ****
* source STAB_V1
X_Q5         VI N59015 N68583 BCV47
R_Rs         VO 0  {Rload}  
C_C2         VI 0  3300uF  
R_R         N21831 VI  100K  
R_P         D N592020 {50k*0.25+.001}
D_D2         N63346 VI D1N3940 
R_R5         N50405 N53086  68  
R_R1         VO D  130k  
Q_Q4         N59015 N19462 VI BC558A 
V_V1         N63346 0  
+SIN 0 14 50 0 0 90
D_D1         0 N41071 D1N4733 
R_R7         N68583 D  100  
R_R2         0 N592020  160k  
Q_Q1         VO N53086 N19462 QBD136/PLP 
R_Rz         N41071 VO  150  
Q_Q3         N21831 D N41071 BC546A 
Q_Q2         N50405 N21831 N41071 BC546A 
R_R6/1W         VI N19462  560mOhm  
.PARAM  Rload=31

**** RESUMING stab_v1-stab2prot2redrmono1-tran1.sim.cir ****
.END

**** 10/26/22 01:11:22 ********* PSpice 9.2 (Mar 2000) ******** ID# 1 ********

 ** Profile: "stab2Prot2RedrMono1-tran1"  [ C:\Users\mvman\projects2\OrCAD\AnaSim\stabilizTensiune\stab_v1-stab2prot2redrmono1-tran1.


 ****     Diode MODEL PARAMETERS


******************************************************************************




               D1N3940         D1N4733         X_Q5.Dmodel     
          IS  400.000000E-12    1.214000E-15   10.000000E-15 
           N    1.48                                         
         ISR                    2.601000E-09                 
          BV  600               5.1                          
         IBV  100.000000E-06     .70507                      
         NBV                     .74348                      
        IBVL                    4.827400E-03                 
        NBVL                    6.7393                       
          RS     .105           1.078           1.000000E-03 
          TT  800.000000E-09                                 
         CJO   19.500000E-12  185.000000E-12   10.000000E-21 
          VJ     .4              .75                         
           M     .38             .3509                       
          FC     .9                                          
          EG    1.36                                         
         XTI   -8                                            
        TBV1                  176.471000E-06                 


**** 10/26/22 01:11:22 ********* PSpice 9.2 (Mar 2000) ******** ID# 1 ********

 ** Profile: "stab2Prot2RedrMono1-tran1"  [ C:\Users\mvman\projects2\OrCAD\AnaSim\stabilizTensiune\stab_v1-stab2prot2redrmono1-tran1.


 ****     BJT MODEL PARAMETERS


******************************************************************************




               BC558A          BC546A          QBD136/PLP      X_Q5.Q1model    
               PNP             NPN             PNP             NPN             
          IS    1.020000E-15    7.049000E-15   74.010000E-15   28.882050E-15 
          BF  174.7           253             336.5           327.434        
          NF    1               1                .9938          1            
         VAF   73.79          127.9            22.47          100            
         IKF     .1023           .07705          .1689          1.21592      
         ISE   10.730000E-15   96.260000E-15  410.400000E-18    2.917181E-15 
          NE    1.644           1.556           1.054           1.26311      
          BR    4.432           1              13.91            1.1125       
          NR    1               1                .9913          1            
         VAR                                   30             100            
         IKR    2.237           3.321            .09888        48.307800E-06 
         ISC   14.740000E-15  130.800000E-15   12.900000E-15   13.715500E-15 
          NC    1.296           1.602           1.1             2.00409      
          NK     .5033           .5305                           .675285     
          RB                                     .5            19.98         
         RBM                                     .5                          
         IRB                                    1.000000E-06                 
          RE                                     .208                        
          RC    1.039            .8766           .05526          .018801     
         CJE   30.000000E-12   11.500000E-12  106.600000E-12   13.300000E-12 
         VJE     .5              .5              .69             .35         
         MJE     .3333           .6715           .3676           .25875      
         CJC    9.810000E-12    5.250000E-12   52.340000E-12    8.502000E-12 
         VJC     .4865           .5697           .6431                       
         MJC     .332            .3147           .4436           .3333       
        XCJC                                     .44             .9          
         MJS                                     .333                        
          FC                                     .99                         
          TF  830.300000E-12  409.500000E-12  257.800000E-12    1.000000E-09 
         XTF   10.32           40.12           13.56           10            
         VTF   10              10               2.366          10            
         ITF     .8981          1.994           1.304           1            
          TR   10.000000E-09   10.000000E-09  100.000000E-27    1.000000E-09 
         XTB    1.5             1.5                                          
          CN    2.2             2.42            2.2             2.42         
           D     .52             .87             .52             .87         


               X_Q5.Q2model    
               NPN             
          IS   28.882050E-15 
          BF  327.434        
          NF    1            
         VAF  100            
         IKF    1.21592      
         ISE    2.917181E-15 
          NE    1.26311      
          BR    1.1125       
          NR    1            
         VAR  100            
         IKR   48.307800E-06 
         ISC   13.715500E-15 
          NC    2.00409      
          NK     .675285     
          RB   19.98         
          RC     .018801     
         CJE   13.300000E-12 
         VJE     .35         
         MJE     .25875      
         MJC     .3333       
        XCJC     .9          
          TF    1.000000E-09 
         XTF   10            
         VTF   10            
         ITF    1            
          TR    1.000000E-09 
          CN    2.42         
           D     .87         


**** 10/26/22 01:11:22 ********* PSpice 9.2 (Mar 2000) ******** ID# 1 ********

 ** Profile: "stab2Prot2RedrMono1-tran1"  [ C:\Users\mvman\projects2\OrCAD\AnaSim\stabilizTensiune\stab_v1-stab2prot2redrmono1-tran1.


 ****     CIRCUIT ELEMENT SUMMARY


******************************************************************************






**** RESISTORS

NAME               NODES      MODEL     VALUE       TC1       TC2       TCE

R_Rs            VO       0             3.10E+01 
R_R         N21831      VI             1.00E+05 
R_P              D N592020             1.25E+04 
R_R5        N50405  N53086             6.80E+01 
R_R1            VO       D             1.30E+05 
R_R7        N68583       D             1.00E+02 
R_R2             0 N592020             1.60E+05 
R_Rz        N41071      VO             1.50E+02 
R_R6/1W         VI  N19462             5.60E-01 
X_Q5.R1     N59015  X_Q5.4             6.00E+09 
X_Q5.R2     X_Q5.4  N68583             6.00E+09 


**** CAPACITORS

NAME               NODES      MODEL     VALUE   In. Cond.     TC1       TC2

C_C2            VI       0             3.30E-03           


**** INDEPENDENT SOURCES

NAME               NODES    DC VALUE  AC VALUE  AC PHASE

V_V1        N63346       0  0.00E+00  0.00E+00  0.00E+00  degrees
                TRANSIENT:  SIN
                    Offset  0.00E+00 
                 Amplitude  1.40E+01 
                      Freq  5.00E+01 
                     Delay  0.00E+00 
                   Damping  0.00E+00 
                     Phase  9.00E+01 



**** DIODES

NAME             +       -  MODEL        AREA

D_D2        N63346      VI D1N3940     1.00E+00 
D_D1             0  N41071 D1N4733     1.00E+00 
X_Q5.D1     N68583      VI X_Q5.Dmodel 
                                       1.00E+00 


**** BIPOLAR JUNCTION TRANSISTORS

NAME             C       B       E       S MODEL         AREA

Q_Q4        N59015  N19462      VI       0 BC558A      1.00E+00 
Q_Q1            VO  N53086  N19462       0 QBD136/PLP  1.00E+00 
Q_Q3        N21831       D  N41071       0 BC546A      1.00E+00 
Q_Q2        N50405  N21831  N41071       0 BC546A      1.00E+00 
X_Q5.Q1         VI  N59015  X_Q5.4       0 X_Q5.Q1model 
                                                       1.00E+00 
X_Q5.Q2         VI  X_Q5.4  N68583       0 X_Q5.Q2model 
                                                       8.20E-01 


**** 10/26/22 01:11:22 ********* PSpice 9.2 (Mar 2000) ******** ID# 1 ********

 ** Profile: "stab2Prot2RedrMono1-tran1"  [ C:\Users\mvman\projects2\OrCAD\AnaSim\stabilizTensiune\stab_v1-stab2prot2redrmono1-tran1.


 ****     INITIAL TRANSIENT SOLUTION       TEMPERATURE =   27.000 DEG C


******************************************************************************



 NODE   VOLTAGE     NODE   VOLTAGE     NODE   VOLTAGE     NODE   VOLTAGE


(    D)    5.6701  (   VI)   13.1730  (   VO)    9.9999  (N19462)   12.9720     

(N21831)    5.7805 (N41071)    5.0810 (N50405)   11.8520 (N53086)   12.1180     

(N59015)    5.9849 (N63346)   14.0000 (N68583)    5.6701 (X_Q5.4)    5.8736     

(N592020)    5.2592                   




    VOLTAGE SOURCE CURRENTS
    NAME         CURRENT

    V_V1        -3.594E-01

    TOTAL POWER DISSIPATION   5.03E+00  WATTS



          JOB CONCLUDED

          TOTAL JOB TIME             .11
