
**** 05/10/22 23:41:21 ********* PSpice 9.2 (Mar 2000) ******** ID# 1 ********

 ** Profile: "stab2Prot2-OP1"  [ C:\Users\mvman\projects2\OrCAD\AnaSim\stabilizTensiune\stab_v1-stab2prot2-op1.sim ] 


 ****     CIRCUIT DESCRIPTION


******************************************************************************




** Creating circuit file "stab_v1-stab2prot2-op1.sim.cir" 
** WARNING: THIS AUTOMATICALLY GENERATED FILE MAY BE OVERWRITTEN BY SUBSEQUENT SIMULATIONS

*Libraries: 
* Local Libraries :
* From [PSPICE NETLIST] section of C:\Orcad\PSpice\PSpice.ini file:
.lib "nom.lib" 

*Analysis directives: 
.OP
.PROBE V(*) I(*) W(*) D(*) NOISE(*) 
.INC ".\stab_v1-stab2Prot2.net" 



**** INCLUDING stab_v1-stab2Prot2.net ****
* source STAB_V1
X_Q5         VI N59015 D BCV47
R_R1         VO D  270k  
Q_Q1         VO N53086 N19462 QBD136/PLP 
Q_Q4         N59015 N19462 VI BC558A 
R_R2         0 N363190  330k  
C_C1         VO 0  47u  
R_R         N21831 VI  100K  
Q_Q2         N50405 N21831 N41071 BC546A 
V_V1         VI 0 10V
D_D1         0 N41071 D1N4733 
R_R6/1W         VI N19462  560mOhm  
Q_Q3         N21831 D N41071 BC546A 
R_P         D N363190 {100k*0.35+.001}
R_R5         N50405 N53086  68  
R_Rz         N41071 VO  150  
R_Rs         VO 0  {Rload}  
.PARAM  Rload=31

**** RESUMING stab_v1-stab2prot2-op1.sim.cir ****
.END

**** 05/10/22 23:41:21 ********* PSpice 9.2 (Mar 2000) ******** ID# 1 ********

 ** Profile: "stab2Prot2-OP1"  [ C:\Users\mvman\projects2\OrCAD\AnaSim\stabilizTensiune\stab_v1-stab2prot2-op1.sim ] 


 ****     Diode MODEL PARAMETERS


******************************************************************************




               D1N4733         X_Q5.Dmodel     
          IS    1.214000E-15   10.000000E-15 
         ISR    2.601000E-09                 
          BV    5.1                          
         IBV     .70507                      
         NBV     .74348                      
        IBVL    4.827400E-03                 
        NBVL    6.7393                       
          RS    1.078           1.000000E-03 
         CJO  185.000000E-12   10.000000E-21 
          VJ     .75                         
           M     .3509                       
        TBV1  176.471000E-06                 


**** 05/10/22 23:41:21 ********* PSpice 9.2 (Mar 2000) ******** ID# 1 ********

 ** Profile: "stab2Prot2-OP1"  [ C:\Users\mvman\projects2\OrCAD\AnaSim\stabilizTensiune\stab_v1-stab2prot2-op1.sim ] 


 ****     BJT MODEL PARAMETERS


******************************************************************************




               QBD136/PLP      BC558A          BC546A          X_Q5.Q1model    
               PNP             PNP             NPN             NPN             
          IS   74.010000E-15    1.020000E-15    7.049000E-15   28.882050E-15 
          BF  336.5           174.7           253             327.434        
          NF     .9938          1               1               1            
         VAF   22.47           73.79          127.9           100            
         IKF     .1689           .1023           .07705         1.21592      
         ISE  410.400000E-18   10.730000E-15   96.260000E-15    2.917181E-15 
          NE    1.054           1.644           1.556           1.26311      
          BR   13.91            4.432           1               1.1125       
          NR     .9913          1               1               1            
         VAR   30                                             100            
         IKR     .09888         2.237           3.321          48.307800E-06 
         ISC   12.900000E-15   14.740000E-15  130.800000E-15   13.715500E-15 
          NC    1.1             1.296           1.602           2.00409      
          NK                     .5033           .5305           .675285     
          RB     .5                                            19.98         
         RBM     .5                                                          
         IRB    1.000000E-06                                                 
          RE     .208                                                        
          RC     .05526         1.039            .8766           .018801     
         CJE  106.600000E-12   30.000000E-12   11.500000E-12   13.300000E-12 
         VJE     .69             .5              .5              .35         
         MJE     .3676           .3333           .6715           .25875      
         CJC   52.340000E-12    9.810000E-12    5.250000E-12    8.502000E-12 
         VJC     .6431           .4865           .5697                       
         MJC     .4436           .332            .3147           .3333       
        XCJC     .44                                             .9          
         MJS     .333                                                        
          FC     .99                                                         
          TF  257.800000E-12  830.300000E-12  409.500000E-12    1.000000E-09 
         XTF   13.56           10.32           40.12           10            
         VTF    2.366          10              10              10            
         ITF    1.304            .8981          1.994           1            
          TR  100.000000E-27   10.000000E-09   10.000000E-09    1.000000E-09 
         XTB                    1.5             1.5                          
          CN    2.2             2.2             2.42            2.42         
           D     .52             .52             .87             .87         


               X_Q5.Q2model    
               NPN             
          IS   28.882050E-15 
          BF  327.434        
          NF    1            
         VAF  100            
         IKF    1.21592      
         ISE    2.917181E-15 
          NE    1.26311      
          BR    1.1125       
          NR    1            
         VAR  100            
         IKR   48.307800E-06 
         ISC   13.715500E-15 
          NC    2.00409      
          NK     .675285     
          RB   19.98         
          RC     .018801     
         CJE   13.300000E-12 
         VJE     .35         
         MJE     .25875      
         MJC     .3333       
        XCJC     .9          
          TF    1.000000E-09 
         XTF   10            
         VTF   10            
         ITF    1            
          TR    1.000000E-09 
          CN    2.42         
           D     .87         


**** 05/10/22 23:41:21 ********* PSpice 9.2 (Mar 2000) ******** ID# 1 ********

 ** Profile: "stab2Prot2-OP1"  [ C:\Users\mvman\projects2\OrCAD\AnaSim\stabilizTensiune\stab_v1-stab2prot2-op1.sim ] 


 ****     SMALL SIGNAL BIAS SOLUTION       TEMPERATURE =   27.000 DEG C


******************************************************************************



 NODE   VOLTAGE     NODE   VOLTAGE     NODE   VOLTAGE     NODE   VOLTAGE


(    D)    5.5300  (   VI)   10.0000  (   VO)    9.6225  (N19462)    9.8046     

(N21831)    5.8052 (N41071)    5.0840 (N50405)    8.3791 (N53086)    8.9447     

(N59015)    5.7194 (X_Q5.4)    5.6511 (N363190)    4.9997                   




    VOLTAGE SOURCE CURRENTS
    NAME         CURRENT

    V_V1        -3.490E-01

    TOTAL POWER DISSIPATION   3.49E+00  WATTS


**** 05/10/22 23:41:21 ********* PSpice 9.2 (Mar 2000) ******** ID# 1 ********

 ** Profile: "stab2Prot2-OP1"  [ C:\Users\mvman\projects2\OrCAD\AnaSim\stabilizTensiune\stab_v1-stab2prot2-op1.sim ] 


 ****     OPERATING POINT INFORMATION      TEMPERATURE =   27.000 DEG C


******************************************************************************






**** DIODES


NAME         D_D1        X_Q5.D1               
MODEL        D1N4733     X_Q5.Dmodel           
ID          -3.86E-02   -4.48E-12             
VD          -5.08E+00   -4.47E+00             
REQ          5.41E-01    1.00E+12             
CAP          9.03E-11    4.28E-21             


**** BIPOLAR JUNCTION TRANSISTORS


NAME         Q_Q1        Q_Q4        Q_Q2        Q_Q3      
MODEL        QBD136/PLP  BC558A      BC546A      BC546A    
IB          -8.32E-03   -1.28E-13    4.17E-05    7.12E-09 
IC          -3.41E-01   -7.51E-12    8.32E-03    2.18E-07 
VBE         -8.60E-01   -1.95E-01    7.21E-01    4.46E-01 
VBC         -6.78E-01    4.09E+00   -2.57E+00   -2.75E-01 
VCE         -1.82E-01   -4.28E+00    3.30E+00    7.21E-01 
BETADC       4.10E+01    5.85E+01    1.99E+02    3.06E+01 
GM           7.84E+00    7.95E-11    2.91E-01    8.42E-06 
RPI          5.24E+00    3.93E+10    6.52E+02    5.30E+06 
RX           5.00E-01    0.00E+00    0.00E+00    0.00E+00 
RO           1.36E+00    8.77E+11    1.57E+04    5.88E+08 
CBE          2.91E-08    3.54E-11    1.61E-10    2.80E-11 
CBC          8.62E-10    4.66E-12    3.07E-12    4.64E-12 
CJS          0.00E+00    0.00E+00    0.00E+00    0.00E+00 
BETAAC       4.10E+01    3.12E+00    1.90E+02    4.46E+01 
CBX/CBX2     1.16E-09    0.00E+00    0.00E+00    0.00E+00 
FT/FT2       4.01E+07    3.16E-01    2.82E+08    4.11E+04 



NAME         X_Q5.Q1                 X_Q5.Q2               
MODEL        X_Q5.Q1model            X_Q5.Q2model          
IB          -3.87E-12               -3.84E-12             
IC           8.84E-12                1.13E-11             
VBE          6.83E-02                1.21E-01             
VBC         -4.28E+00               -4.35E+00             
VCE          4.35E+00                4.47E+00             
BETADC      -2.29E+00               -2.94E+00             
GM           1.62E-11                1.03E-10             
RPI          1.29E+12                3.04E+11             
RX           2.00E+01                2.44E+01             
RO           9.18E+11                8.99E+11             
CBE          1.41E-11                1.22E-11             
CBC          4.06E-12                1.00E-21             
CJS          0.00E+00                0.00E+00             
BETAAC       2.10E+01                3.13E+01             
CBX/CBX2     4.51E-13                0.00E+00             
FT/FT2       1.39E-01                1.35E+00             



          JOB CONCLUDED

          TOTAL JOB TIME             .03
